T398C 000:039.038   SEGGER J-Link V7.98a Log File
T398C 000:039.134   DLL Compiled: Jul 19 2024 14:57:58
T398C 000:039.138   Logging started @ 2024-08-03 20:45
T398C 000:039.141   Process: D:\Keil_v5\UV4\UV4.exe
T398C 000:039.156 - 39.154ms
T398C 000:039.163 JLINK_SetWarnOutHandler(...)
T398C 000:039.167 - 0.005ms
T398C 000:039.171 JLINK_OpenEx(...)
T398C 000:041.734   Firmware: J-Link ARM-OB STM32 compiled Aug 22 2012 19:52:04
T398C 000:042.431   Firmware: J-Link ARM-OB STM32 compiled Aug 22 2012 19:52:04
T398C 000:044.080   Hardware: V7.00
T398C 000:044.086   S/N: 20200908
T398C 000:044.091   OEM: SEGGER
T398C 000:044.096   Feature(s): RDI,FlashDL,FlashBP,JFlash,GDBFull
T398C 000:044.367   Bootloader: (Could not read)
T398C 000:045.062   TELNET listener socket opened on port 19021
T398C 000:045.124   WEBSRV WEBSRV_Init(): Starting webserver thread(s)
T398C 000:045.251   WEBSRV Webserver running on local port 19080
T398C 000:045.314   Looking for J-Link GUI Server exe at: D:\Keil_v5\ARM\Segger\JLinkGUIServer.exe
T398C 000:045.362   Looking for J-Link GUI Server exe at: C:\Program Files\SEGGER\JLink_V798a\JLinkGUIServer.exe
T398C 000:045.385   Forking J-Link GUI Server: C:\Program Files\SEGGER\JLink_V798a\JLinkGUIServer.exe
T398C 000:047.554   J-Link GUI Server info: "J-Link GUI server V7.98a "
T398C 000:047.816 - 8.641ms returns "O.K."
T398C 000:047.830 JLINK_GetEmuCaps()
T398C 000:047.836 - 0.004ms returns 0x88EA5833
T398C 000:047.846 JLINK_TIF_GetAvailable(...)
T398C 000:048.042 - 0.196ms
T398C 000:048.048 JLINK_SetErrorOutHandler(...)
T398C 000:048.051 - 0.003ms
T398C 000:048.066 JLINK_ExecCommand("ProjectFile = "D:\Ti\mspm0_sdk_2_01_00_03\empty\keil\JLinkSettings.ini"", ...). 
T398C 000:061.048   Ref file found at: D:\Keil_v5\ARM\Segger\JLinkDevices.ref
T398C 000:061.128   REF file references invalid XML file: C:\Program Files\SEGGER\JLink_V798a\JLinkDevices.xml
T398C 000:062.218 - 14.153ms returns 0x00
T398C 000:063.899 JLINK_ExecCommand("Device = MSPM0L1306", ...). 
T398C 000:064.817   Device "MSPM0L1306" selected.
T398C 000:065.046 - 1.134ms returns 0x00
T398C 000:065.054 JLINK_ExecCommand("DisableConnectionTimeout", ...). 
T398C 000:065.060   ERROR: Unknown command
T398C 000:065.065 - 0.006ms returns 0x01
T398C 000:065.071 JLINK_GetHardwareVersion()
T398C 000:065.076 - 0.005ms returns 70000
T398C 000:065.091 JLINK_GetDLLVersion()
T398C 000:065.094 - 0.003ms returns 79801
T398C 000:065.098 JLINK_GetOEMString(...)
T398C 000:065.103 JLINK_GetFirmwareString(...)
T398C 000:065.106 - 0.003ms
T398C 000:068.181 JLINK_GetDLLVersion()
T398C 000:068.190 - 0.009ms returns 79801
T398C 000:068.195 JLINK_GetCompileDateTime()
T398C 000:068.199 - 0.003ms
T398C 000:069.490 JLINK_GetFirmwareString(...)
T398C 000:069.499 - 0.009ms
T398C 000:070.771 JLINK_GetHardwareVersion()
T398C 000:070.780 - 0.008ms returns 70000
T398C 000:072.050 JLINK_GetSN()
T398C 000:072.059 - 0.009ms returns 20200908
T398C 000:073.311 JLINK_GetOEMString(...)
T398C 000:075.891 JLINK_TIF_Select(JLINKARM_TIF_SWD)
T398C 000:076.514 - 0.623ms returns 0x00
T398C 000:076.528 JLINK_HasError()
T398C 000:076.540 JLINK_SetSpeed(5000)
T398C 000:076.656 - 0.117ms
T398C 000:076.693 JLINK_GetId()
T398C 000:078.171   InitTarget() start
T398C 000:078.191    J-Link Script File: Executing InitTarget()
T398C 000:081.107   Error: Failed to initialized DAP.
T398C 000:082.904   No PWR-AP detected.
T398C 000:084.321   InitTarget() end - Took 4.72ms
T398C 000:086.234   Found SW-DP with ID 0x6BA02477
T398C 000:089.451   Old FW that does not support reading DPIDR via DAP jobs
T398C 000:094.407   DPv0 detected
T398C 000:096.081   CoreSight SoC-400 or earlier
T398C 000:097.341   Scanning AP map to find all available APs
T398C 000:105.535   AP[5]: Stopped AP scan as end of AP map has been reached
T398C 000:106.827   AP[0]: AHB-AP (IDR: 0x84770001)
T398C 000:108.115   AP[1]: MEM-AP (IDR: 0x002E0001)
T398C 000:109.357   AP[2]: JTAG-AP (IDR: 0x002E0000)
T398C 000:110.581   AP[3]: MEM-AP (IDR: 0x002E0003)
T398C 000:112.216   AP[4]: MEM-AP (IDR: 0x002E0002)
T398C 000:113.504   Iterating through AP map to find AHB-AP to use
T398C 000:122.067   AP[0]: Skipped. Invalid implementer code read from CPUIDVal[31:24] = 0x00
T398C 000:123.309   AP[1]: Skipped. Not an AHB-AP
T398C 000:124.569   AP[2]: Skipped. Not an AHB-AP
T398C 000:125.788   AP[3]: Skipped. Not an AHB-AP
T398C 000:127.398   AP[4]: Skipped. Not an AHB-AP
T398C 000:128.657   Attach to CPU failed. Executing connect under reset.
T398C 000:153.478   Old FW that does not support reading DPIDR via DAP jobs
T398C 000:160.981   DPv0 detected
T398C 000:164.345   CoreSight SoC-400 or earlier
T398C 000:166.865   Scanning AP map to find all available APs
T398C 000:177.740   AP[5]: Stopped AP scan as end of AP map has been reached
T398C 000:180.142   AP[0]: AHB-AP (IDR: 0x84770001)
T398C 000:182.021   AP[1]: MEM-AP (IDR: 0x002E0001)
T398C 000:183.454   AP[2]: JTAG-AP (IDR: 0x002E0000)
T398C 000:184.664   AP[3]: MEM-AP (IDR: 0x002E0003)
T398C 000:185.865   AP[4]: MEM-AP (IDR: 0x002E0002)
T398C 000:187.064   Iterating through AP map to find AHB-AP to use
T398C 000:196.866   AP[0]: Skipped. Invalid implementer code read from CPUIDVal[31:24] = 0x00
T398C 000:198.116   AP[1]: Skipped. Not an AHB-AP
T398C 000:199.338   AP[2]: Skipped. Not an AHB-AP
T398C 000:200.550   AP[3]: Skipped. Not an AHB-AP
T398C 000:201.760   AP[4]: Skipped. Not an AHB-AP
T398C 000:202.960   Could not find core in Coresight setup
T398C 000:309.730   Connect fallback: Reset via Reset pin & Connect.
T398C 000:376.299   InitTarget() start
T398C 000:376.321    J-Link Script File: Executing InitTarget()
T398C 000:380.147   DAP initialized successfully.
T398C 000:383.083   Setting up LPM debug bits
T398C 000:385.697   InitTarget() end - Took 8.14ms
T398C 000:387.739   Found SW-DP with ID 0x6BA02477
T398C 000:390.992   Old FW that does not support reading DPIDR via DAP jobs
T398C 000:395.369   DPv0 detected
T398C 000:396.507   CoreSight SoC-400 or earlier
T398C 000:397.587   Scanning AP map to find all available APs
T398C 000:404.732   AP[5]: Stopped AP scan as end of AP map has been reached
T398C 000:405.859   AP[0]: AHB-AP (IDR: 0x84770001)
T398C 000:407.404   AP[1]: MEM-AP (IDR: 0x002E0001)
T398C 000:408.623   AP[2]: JTAG-AP (IDR: 0x002E0000)
T398C 000:409.706   AP[3]: MEM-AP (IDR: 0x002E0003)
T398C 000:410.837   AP[4]: MEM-AP (IDR: 0x002E0002)
T398C 000:411.956   Iterating through AP map to find AHB-AP to use
T398C 000:416.405   AP[0]: Core found
T398C 000:417.510   AP[0]: AHB-AP ROM base: 0xF0000000
T398C 000:420.451   CPUID register: 0x410CC601. Implementer code: 0x41 (ARM)
T398C 000:421.556   Found Cortex-M0 r0p1, Little endian.
T398C 000:422.652   -- Max. mem block: 0x00002C18
T398C 000:423.827   CPU_ReadMem(4 bytes @ 0xE000EDF0)
T398C 000:424.259   CPU_ReadMem(4 bytes @ 0xE0002000)
T398C 000:425.934   FPUnit: 4 code (BP) slots and 0 literal slots
T398C 000:425.947   CPU_ReadMem(4 bytes @ 0xE000EDFC)
T398C 000:426.479   CPU_WriteMem(4 bytes @ 0xE000EDFC)
T398C 000:426.961   CPU_ReadMem(4 bytes @ 0xE0001000)
T398C 000:427.367   CPU_WriteMem(4 bytes @ 0xE0001000)
T398C 000:429.000   CoreSight components:
T398C 000:430.107   ROMTbl[0] @ F0000000
T398C 000:430.118   CPU_ReadMem(64 bytes @ 0xF0000000)
T398C 000:431.304   CPU_ReadMem(32 bytes @ 0xE00FFFE0)
T398C 000:433.130   [0][0]: E00FF000 CID B105100D PID 000BB4C0 ROM Table
T398C 000:434.336   ROMTbl[1] @ E00FF000
T398C 000:434.348   CPU_ReadMem(64 bytes @ 0xE00FF000)
T398C 000:435.535   CPU_ReadMem(32 bytes @ 0xE000EFE0)
T398C 000:437.455   [1][0]: E000E000 CID B105E00D PID 000BB008 SCS
T398C 000:437.465   CPU_ReadMem(32 bytes @ 0xE0001FE0)
T398C 000:439.309   [1][1]: E0001000 CID B105E00D PID 000BB00A DWT
T398C 000:439.320   CPU_ReadMem(32 bytes @ 0xE0002FE0)
T398C 000:441.333   [1][2]: E0002000 CID B105E00D PID 000BB00B FPB
T398C 000:441.802 - 365.108ms returns 0x6BA02477
T398C 000:441.814 JLINK_GetDLLVersion()
T398C 000:441.817 - 0.003ms returns 79801
T398C 000:441.847 JLINK_CORE_GetFound()
T398C 000:441.850 - 0.003ms returns 0x60000FF
T398C 000:441.858 JLINK_GetDebugInfo(0x100 = JLINKARM_ROM_TABLE_ADDR_INDEX)
T398C 000:441.862   Value=0xF0000000
T398C 000:441.866 - 0.008ms returns 0
T398C 000:442.981 JLINK_GetDebugInfo(0x100 = JLINKARM_ROM_TABLE_ADDR_INDEX)
T398C 000:442.989   Value=0xF0000000
T398C 000:442.993 - 0.012ms returns 0
T398C 000:442.997 JLINK_GetDebugInfo(0x101 = JLINKARM_DEBUG_INFO_ETM_ADDR_INDEX)
T398C 000:443.000   Value=0x00000000
T398C 000:443.004 - 0.007ms returns 0
T398C 000:443.009 JLINK_ReadMemEx(0xE0041FF0, 0x10 Bytes, Flags = 0x02000004)
T398C 000:443.022   CPU_ReadMem(16 bytes @ 0xE0041FF0)
T398C 000:443.586   Data:  00 00 00 00 00 00 00 00 00 00 00 00 00 00 00 00
T398C 000:443.591 - 0.582ms returns 16 (0x10)
T398C 000:443.596 JLINK_GetDebugInfo(0x102 = JLINKARM_DEBUG_INFO_MTB_ADDR_INDEX)
T398C 000:443.599   Value=0x00000000
T398C 000:443.603 - 0.007ms returns 0
T398C 000:443.606 JLINK_GetDebugInfo(0x103 = JLINKARM_DEBUG_INFO_TPIU_ADDR_INDEX)
T398C 000:443.609   Value=0x00000000
T398C 000:443.613 - 0.007ms returns 0
T398C 000:443.617 JLINK_ReadMemEx(0xE0040FF0, 0x10 Bytes, Flags = 0x02000004)
T398C 000:443.622   CPU_ReadMem(16 bytes @ 0xE0040FF0)
T398C 000:444.267   Data:  00 00 00 00 00 00 00 00 00 00 00 00 00 00 00 00
T398C 000:444.272 - 0.654ms returns 16 (0x10)
T398C 000:444.277 JLINK_GetDebugInfo(0x104 = JLINKARM_DEBUG_INFO_ITM_ADDR_INDEX)
T398C 000:444.280   Value=0xE0000000
T398C 000:444.284 - 0.007ms returns 0
T398C 000:444.288 JLINK_GetDebugInfo(0x105 = JLINKARM_DEBUG_INFO_DWT_ADDR_INDEX)
T398C 000:444.291   Value=0xE0001000
T398C 000:444.295 - 0.007ms returns 0
T398C 000:444.299 JLINK_GetDebugInfo(0x106 = JLINKARM_DEBUG_INFO_FPB_ADDR_INDEX)
T398C 000:444.301   Value=0xE0002000
T398C 000:444.305 - 0.007ms returns 0
T398C 000:444.309 JLINK_GetDebugInfo(0x107 = JLINKARM_DEBUG_INFO_NVIC_ADDR_INDEX)
T398C 000:444.312   Value=0xE000E000
T398C 000:444.316 - 0.007ms returns 0
T398C 000:444.319 JLINK_GetDebugInfo(0x10C = JLINKARM_DEBUG_INFO_DBG_ADDR_INDEX)
T398C 000:444.322   Value=0xE000EDF0
T398C 000:444.326 - 0.006ms returns 0
T398C 000:444.330 JLINK_GetDebugInfo(0x01 = Unknown)
T398C 000:444.332   Value=0x00000000
T398C 000:444.336 - 0.007ms returns 0
T398C 000:444.340 JLINK_ReadMemU32(0xE000ED00, 0x1 Items)
T398C 000:444.345   CPU_ReadMem(4 bytes @ 0xE000ED00)
T398C 000:444.815   Data:  01 C6 0C 41
T398C 000:444.820   Debug reg: CPUID
T398C 000:444.824 - 0.484ms returns 1 (0x1)
T398C 000:444.829 JLINK_GetDebugInfo(0x10F = JLINKARM_DEBUG_INFO_HAS_CORTEX_M_SECURITY_EXT_INDEX)
T398C 000:444.832   Value=0x00000000
T398C 000:444.836 - 0.007ms returns 0
T398C 000:444.839 JLINK_HasError()
T398C 000:444.844 JLINK_SetResetType(JLINKARM_CM3_RESET_TYPE_NORMAL)
T398C 000:444.847 - 0.003ms returns JLINKARM_CM3_RESET_TYPE_NORMAL
T398C 000:444.850 JLINK_Reset()
T398C 000:445.945   ResetTarget() start
T398C 000:445.953    J-Link Script File: Executing ResetTarget()
T398C 000:445.960   CPU_ReadMem(4 bytes @ 0xE000EDF0)
T398C 000:446.522   CPU is running
T398C 000:446.528   CPU_WriteMem(4 bytes @ 0xE000EDF0)
T398C 000:446.947   CPU_ReadMem(4 bytes @ 0x400B0300)
T398C 000:447.435   CPU_ReadMem(4 bytes @ 0xE000EDFC)
T398C 000:447.844   CPU is running
T398C 000:447.849   CPU_WriteMem(4 bytes @ 0xE000EDFC)
T398C 000:448.387   CPU is running
T398C 000:448.391   CPU_WriteMem(4 bytes @ 0x400B0300)
T398C 000:448.806   CPU is running
T398C 000:448.817   CPU_WriteMem(4 bytes @ 0x400B0304)
T398C 000:449.437   CPU_ReadMem(4 bytes @ 0xE000EDF0)
T398C 000:451.968   DAP initialized successfully.
T398C 000:451.978   CPU is running
T398C 000:451.984   CPU_WriteMem(4 bytes @ 0xE000EDFC)
T398C 000:453.634   ResetTarget() end - Took 6.59ms
T398C 000:456.993   CPU_WriteMem(4 bytes @ 0xE0002000)
T398C 000:457.546   CPU_ReadMem(4 bytes @ 0xE000EDFC)
T398C 000:458.000   CPU_ReadMem(4 bytes @ 0xE0001000)
T398C 000:458.480   CPU_WriteMem(4 bytes @ 0xE0001000)
T398C 000:458.898 - 14.046ms
T398C 000:458.909 JLINK_Halt()
T398C 000:458.912 - 0.003ms returns 0x00
T398C 000:458.918 JLINK_ReadMemU32(0xE000EDF0, 0x1 Items)
T398C 000:458.927   CPU_ReadMem(4 bytes @ 0xE000EDF0)
T398C 000:459.443   Data:  03 00 03 01
T398C 000:459.449   Debug reg: DHCSR
T398C 000:459.454 - 0.536ms returns 1 (0x1)
T398C 000:459.462 JLINK_WriteU32_64(0xE000EDF0, 0xA05F0003)
T398C 000:459.465   Debug reg: DHCSR
T398C 000:459.700   CPU_WriteMem(4 bytes @ 0xE000EDF0)
T398C 000:460.314 - 0.852ms returns 0 (0x00000000)
T398C 000:460.319 JLINK_WriteU32_64(0xE000EDFC, 0x01000000)
T398C 000:460.322   Debug reg: DEMCR
T398C 000:460.328   CPU_WriteMem(4 bytes @ 0xE000EDFC)
T398C 000:460.922 - 0.599ms returns 0 (0x00000000)
T398C 000:465.340 JLINK_GetHWStatus(...)
T398C 000:465.502 - 0.161ms returns 0
T398C 000:468.572 JLINK_GetNumBPUnits(Type = 0xFFFFFF00)
T398C 000:468.580 - 0.008ms returns 0x04
T398C 000:468.584 JLINK_GetNumBPUnits(Type = 0xF0)
T398C 000:468.587 - 0.003ms returns 0x2000
T398C 000:468.591 JLINK_GetNumWPUnits()
T398C 000:468.594 - 0.002ms returns 2
T398C 000:471.999 JLINK_GetSpeed()
T398C 000:472.007 - 0.008ms returns 4000
T398C 000:474.663 JLINK_ReadMemU32(0xE000E004, 0x1 Items)
T398C 000:474.676   CPU_ReadMem(4 bytes @ 0xE000E004)
T398C 000:475.294   Data:  00 00 00 00
T398C 000:475.300 - 0.637ms returns 1 (0x1)
T398C 000:475.308 JLINK_Halt()
T398C 000:475.311 - 0.003ms returns 0x00
T398C 000:475.314 JLINK_IsHalted()
T398C 000:475.318 - 0.003ms returns TRUE
T398C 000:476.931 JLINK_WriteMem(0x20000000, 0x24C Bytes, ...)
T398C 000:476.937   Data:  00 BE 0A E0 0D 78 2D 06 68 40 08 24 40 00 00 D3 ...
T398C 000:477.217   CPU_WriteMem(588 bytes @ 0x20000000)
T398C 000:484.500 - 7.569ms returns 0x24C
T398C 000:484.529 JLINK_HasError()
T398C 000:484.537 JLINK_WriteReg(R0, 0x00000000)
T398C 000:484.542 - 0.007ms returns 0
T398C 000:484.545 JLINK_WriteReg(R1, 0x00B71B00)
T398C 000:484.549 - 0.003ms returns 0
T398C 000:484.552 JLINK_WriteReg(R2, 0x00000001)
T398C 000:484.555 - 0.003ms returns 0
T398C 000:484.559 JLINK_WriteReg(R3, 0x00000000)
T398C 000:484.562 - 0.003ms returns 0
T398C 000:484.565 JLINK_WriteReg(R4, 0x00000000)
T398C 000:484.568 - 0.003ms returns 0
T398C 000:484.572 JLINK_WriteReg(R5, 0x00000000)
T398C 000:484.575 - 0.003ms returns 0
T398C 000:484.578 JLINK_WriteReg(R6, 0x00000000)
T398C 000:484.581 - 0.003ms returns 0
T398C 000:484.584 JLINK_WriteReg(R7, 0x00000000)
T398C 000:484.587 - 0.003ms returns 0
T398C 000:484.592 JLINK_WriteReg(R8, 0x00000000)
T398C 000:484.601 - 0.010ms returns 0
T398C 000:484.605 JLINK_WriteReg(R9, 0x20000248)
T398C 000:484.611 - 0.006ms returns 0
T398C 000:484.615 JLINK_WriteReg(R10, 0x00000000)
T398C 000:484.618 - 0.003ms returns 0
T398C 000:484.621 JLINK_WriteReg(R11, 0x00000000)
T398C 000:484.624 - 0.003ms returns 0
T398C 000:484.628 JLINK_WriteReg(R12, 0x00000000)
T398C 000:484.631 - 0.002ms returns 0
T398C 000:484.634 JLINK_WriteReg(R13 (SP), 0x20001000)
T398C 000:484.638 - 0.003ms returns 0
T398C 000:484.641 JLINK_WriteReg(R14, 0x20000001)
T398C 000:484.644 - 0.003ms returns 0
T398C 000:484.649 JLINK_WriteReg(R15 (PC), 0x20000038)
T398C 000:484.652 - 0.004ms returns 0
T398C 000:484.656 JLINK_WriteReg(XPSR, 0x01000000)
T398C 000:484.659 - 0.003ms returns 0
T398C 000:484.662 JLINK_WriteReg(MSP, 0x20001000)
T398C 000:484.672 - 0.010ms returns 0
T398C 000:484.676 JLINK_WriteReg(PSP, 0x20001000)
T398C 000:484.679 - 0.003ms returns 0
T398C 000:484.682 JLINK_WriteReg(CFBP, 0x00000000)
T398C 000:484.685 - 0.003ms returns 0
T398C 000:484.689 JLINK_SetBPEx(Addr = 0x20000000, Type = 0xFFFFFFF2)
T398C 000:484.696   CPU_ReadMem(2 bytes @ 0x20000000)
T398C 000:485.266 - 0.577ms returns 0x00000001
T398C 000:485.272 JLINK_Go()
T398C 000:485.277   CPU_WriteMem(2 bytes @ 0x20000000)
T398C 000:486.087   CPU_ReadMem(4 bytes @ 0xE0001000)
T398C 000:486.687   CPU_WriteMem(4 bytes @ 0xE0001000)
T398C 000:487.266   CPU_WriteMem(4 bytes @ 0xE0002008)
T398C 000:487.272   CPU_WriteMem(4 bytes @ 0xE000200C)
T398C 000:487.276   CPU_WriteMem(4 bytes @ 0xE0002010)
T398C 000:487.281   CPU_WriteMem(4 bytes @ 0xE0002014)
T398C 000:488.923   CPU_WriteMem(4 bytes @ 0xE0001004)
T398C 000:493.995   Memory map 'after startup completion point' is active
T398C 000:494.010 - 8.737ms
T398C 000:494.024 JLINK_IsHalted()
T398C 000:497.221   CPU_ReadMem(2 bytes @ 0x20000000)
T398C 000:497.743 - 3.718ms returns TRUE
T398C 000:497.763 JLINK_ReadReg(R15 (PC))
T398C 000:497.771 - 0.008ms returns 0x20000000
T398C 000:497.777 JLINK_ClrBPEx(BPHandle = 0x00000001)
T398C 000:497.783 - 0.005ms returns 0x00
T398C 000:497.789 JLINK_ReadReg(R0)
T398C 000:497.794 - 0.005ms returns 0x00000000
T398C 000:498.061 JLINK_HasError()
T398C 000:498.071 JLINK_WriteReg(R0, 0x00000000)
T398C 000:498.077 - 0.006ms returns 0
T398C 000:498.083 JLINK_WriteReg(R1, 0x00000400)
T398C 000:498.088 - 0.005ms returns 0
T398C 000:498.094 JLINK_WriteReg(R2, 0x000000FF)
T398C 000:498.099 - 0.004ms returns 0
T398C 000:498.104 JLINK_WriteReg(R3, 0x00000000)
T398C 000:498.109 - 0.004ms returns 0
T398C 000:498.115 JLINK_WriteReg(R4, 0x00000000)
T398C 000:498.120 - 0.004ms returns 0
T398C 000:498.125 JLINK_WriteReg(R5, 0x00000000)
T398C 000:498.130 - 0.004ms returns 0
T398C 000:498.136 JLINK_WriteReg(R6, 0x00000000)
T398C 000:498.141 - 0.004ms returns 0
T398C 000:498.146 JLINK_WriteReg(R7, 0x00000000)
T398C 000:498.151 - 0.004ms returns 0
T398C 000:498.157 JLINK_WriteReg(R8, 0x00000000)
T398C 000:498.161 - 0.004ms returns 0
T398C 000:498.167 JLINK_WriteReg(R9, 0x20000248)
T398C 000:498.172 - 0.004ms returns 0
T398C 000:498.177 JLINK_WriteReg(R10, 0x00000000)
T398C 000:498.182 - 0.004ms returns 0
T398C 000:498.188 JLINK_WriteReg(R11, 0x00000000)
T398C 000:498.192 - 0.004ms returns 0
T398C 000:498.198 JLINK_WriteReg(R12, 0x00000000)
T398C 000:498.203 - 0.004ms returns 0
T398C 000:498.209 JLINK_WriteReg(R13 (SP), 0x20001000)
T398C 000:498.214 - 0.005ms returns 0
T398C 000:498.220 JLINK_WriteReg(R14, 0x20000001)
T398C 000:498.225 - 0.004ms returns 0
T398C 000:498.230 JLINK_WriteReg(R15 (PC), 0x20000020)
T398C 000:498.235 - 0.004ms returns 0
T398C 000:498.241 JLINK_WriteReg(XPSR, 0x01000000)
T398C 000:498.246 - 0.005ms returns 0
T398C 000:498.252 JLINK_WriteReg(MSP, 0x20001000)
T398C 000:498.256 - 0.004ms returns 0
T398C 000:498.263 JLINK_WriteReg(PSP, 0x20001000)
T398C 000:498.267 - 0.004ms returns 0
T398C 000:498.273 JLINK_WriteReg(CFBP, 0x00000000)
T398C 000:498.278 - 0.004ms returns 0
T398C 000:498.284 JLINK_SetBPEx(Addr = 0x20000000, Type = 0xFFFFFFF2)
T398C 000:498.290 - 0.006ms returns 0x00000002
T398C 000:498.296 JLINK_Go()
T398C 000:498.308   CPU_ReadMem(4 bytes @ 0xE0001000)
T398C 000:502.016 - 3.720ms
T398C 000:502.029 JLINK_IsHalted()
T398C 000:505.208   CPU_ReadMem(2 bytes @ 0x20000000)
T398C 000:505.739 - 3.709ms returns TRUE
T398C 000:505.750 JLINK_ReadReg(R15 (PC))
T398C 000:505.759 - 0.008ms returns 0x20000000
T398C 000:505.767 JLINK_ClrBPEx(BPHandle = 0x00000002)
T398C 000:505.774 - 0.007ms returns 0x00
T398C 000:505.782 JLINK_ReadReg(R0)
T398C 000:505.789 - 0.006ms returns 0x00000001
T398C 000:505.797 JLINK_HasError()
T398C 000:505.806 JLINK_WriteReg(R0, 0x00000000)
T398C 000:505.813 - 0.007ms returns 0
T398C 000:505.821 JLINK_WriteReg(R1, 0x00000400)
T398C 000:505.827 - 0.006ms returns 0
T398C 000:505.835 JLINK_WriteReg(R2, 0x000000FF)
T398C 000:505.842 - 0.006ms returns 0
T398C 000:505.849 JLINK_WriteReg(R3, 0x00000000)
T398C 000:505.856 - 0.006ms returns 0
T398C 000:505.863 JLINK_WriteReg(R4, 0x00000000)
T398C 000:505.870 - 0.006ms returns 0
T398C 000:505.878 JLINK_WriteReg(R5, 0x00000000)
T398C 000:505.884 - 0.006ms returns 0
T398C 000:505.892 JLINK_WriteReg(R6, 0x00000000)
T398C 000:505.898 - 0.006ms returns 0
T398C 000:505.906 JLINK_WriteReg(R7, 0x00000000)
T398C 000:505.912 - 0.006ms returns 0
T398C 000:505.920 JLINK_WriteReg(R8, 0x00000000)
T398C 000:505.926 - 0.006ms returns 0
T398C 000:505.934 JLINK_WriteReg(R9, 0x20000248)
T398C 000:505.940 - 0.006ms returns 0
T398C 000:505.948 JLINK_WriteReg(R10, 0x00000000)
T398C 000:505.954 - 0.006ms returns 0
T398C 000:505.962 JLINK_WriteReg(R11, 0x00000000)
T398C 000:505.974 - 0.012ms returns 0
T398C 000:505.982 JLINK_WriteReg(R12, 0x00000000)
T398C 000:505.988 - 0.006ms returns 0
T398C 000:505.997 JLINK_WriteReg(R13 (SP), 0x20001000)
T398C 000:506.003 - 0.007ms returns 0
T398C 000:506.011 JLINK_WriteReg(R14, 0x20000001)
T398C 000:506.018 - 0.006ms returns 0
T398C 000:506.025 JLINK_WriteReg(R15 (PC), 0x20000070)
T398C 000:506.032 - 0.006ms returns 0
T398C 000:506.039 JLINK_WriteReg(XPSR, 0x01000000)
T398C 000:506.046 - 0.006ms returns 0
T398C 000:506.053 JLINK_WriteReg(MSP, 0x20001000)
T398C 000:506.060 - 0.006ms returns 0
T398C 000:506.068 JLINK_WriteReg(PSP, 0x20001000)
T398C 000:506.074 - 0.006ms returns 0
T398C 000:506.082 JLINK_WriteReg(CFBP, 0x00000000)
T398C 000:506.088 - 0.006ms returns 0
T398C 000:506.096 JLINK_SetBPEx(Addr = 0x20000000, Type = 0xFFFFFFF2)
T398C 000:506.104 - 0.008ms returns 0x00000003
T398C 000:506.111 JLINK_Go()
T398C 000:506.125   CPU_ReadMem(4 bytes @ 0xE0001000)
T398C 000:510.257 - 4.144ms
T398C 000:510.275 JLINK_IsHalted()
T398C 000:510.685 - 0.409ms returns FALSE
T398C 000:510.694 JLINK_HasError()
T398C 000:522.315 JLINK_IsHalted()
T398C 000:525.632   CPU_ReadMem(2 bytes @ 0x20000000)
T398C 000:526.259 - 3.943ms returns TRUE
T398C 000:526.271 JLINK_ReadReg(R15 (PC))
T398C 000:526.279 - 0.007ms returns 0x20000000
T398C 000:526.290 JLINK_ClrBPEx(BPHandle = 0x00000003)
T398C 000:526.296 - 0.006ms returns 0x00
T398C 000:526.342 JLINK_ReadReg(R0)
T398C 000:526.356 - 0.013ms returns 0x00000000
T398C 000:526.818 JLINK_HasError()
T398C 000:526.829 JLINK_WriteReg(R0, 0x00000400)
T398C 000:526.836 - 0.007ms returns 0
T398C 000:526.842 JLINK_WriteReg(R1, 0x00000400)
T398C 000:526.847 - 0.004ms returns 0
T398C 000:526.852 JLINK_WriteReg(R2, 0x000000FF)
T398C 000:526.857 - 0.004ms returns 0
T398C 000:526.862 JLINK_WriteReg(R3, 0x00000000)
T398C 000:526.867 - 0.004ms returns 0
T398C 000:526.873 JLINK_WriteReg(R4, 0x00000000)
T398C 000:526.877 - 0.004ms returns 0
T398C 000:526.883 JLINK_WriteReg(R5, 0x00000000)
T398C 000:526.887 - 0.004ms returns 0
T398C 000:526.893 JLINK_WriteReg(R6, 0x00000000)
T398C 000:526.897 - 0.004ms returns 0
T398C 000:526.903 JLINK_WriteReg(R7, 0x00000000)
T398C 000:526.908 - 0.004ms returns 0
T398C 000:526.913 JLINK_WriteReg(R8, 0x00000000)
T398C 000:526.918 - 0.005ms returns 0
T398C 000:526.924 JLINK_WriteReg(R9, 0x20000248)
T398C 000:526.928 - 0.004ms returns 0
T398C 000:526.934 JLINK_WriteReg(R10, 0x00000000)
T398C 000:526.938 - 0.004ms returns 0
T398C 000:526.944 JLINK_WriteReg(R11, 0x00000000)
T398C 000:526.948 - 0.004ms returns 0
T398C 000:526.954 JLINK_WriteReg(R12, 0x00000000)
T398C 000:526.958 - 0.004ms returns 0
T398C 000:526.964 JLINK_WriteReg(R13 (SP), 0x20001000)
T398C 000:526.969 - 0.005ms returns 0
T398C 000:526.975 JLINK_WriteReg(R14, 0x20000001)
T398C 000:526.979 - 0.004ms returns 0
T398C 000:526.985 JLINK_WriteReg(R15 (PC), 0x20000020)
T398C 000:526.990 - 0.004ms returns 0
T398C 000:526.995 JLINK_WriteReg(XPSR, 0x01000000)
T398C 000:527.000 - 0.005ms returns 0
T398C 000:527.006 JLINK_WriteReg(MSP, 0x20001000)
T398C 000:527.010 - 0.004ms returns 0
T398C 000:527.016 JLINK_WriteReg(PSP, 0x20001000)
T398C 000:527.020 - 0.004ms returns 0
T398C 000:527.026 JLINK_WriteReg(CFBP, 0x00000000)
T398C 000:527.031 - 0.004ms returns 0
T398C 000:527.037 JLINK_SetBPEx(Addr = 0x20000000, Type = 0xFFFFFFF2)
T398C 000:527.043 - 0.006ms returns 0x00000004
T398C 000:527.049 JLINK_Go()
T398C 000:527.061   CPU_ReadMem(4 bytes @ 0xE0001000)
T398C 000:530.897 - 3.847ms
T398C 000:530.908 JLINK_IsHalted()
T398C 000:534.183   CPU_ReadMem(2 bytes @ 0x20000000)
T398C 000:534.734 - 3.825ms returns TRUE
T398C 000:534.745 JLINK_ReadReg(R15 (PC))
T398C 000:534.754 - 0.008ms returns 0x20000000
T398C 000:534.762 JLINK_ClrBPEx(BPHandle = 0x00000004)
T398C 000:534.768 - 0.006ms returns 0x00
T398C 000:534.776 JLINK_ReadReg(R0)
T398C 000:534.782 - 0.006ms returns 0x00000001
T398C 000:534.790 JLINK_HasError()
T398C 000:534.798 JLINK_WriteReg(R0, 0x00000400)
T398C 000:534.807 - 0.009ms returns 0
T398C 000:534.818 JLINK_WriteReg(R1, 0x00000400)
T398C 000:534.824 - 0.006ms returns 0
T398C 000:534.831 JLINK_WriteReg(R2, 0x000000FF)
T398C 000:534.837 - 0.006ms returns 0
T398C 000:534.844 JLINK_WriteReg(R3, 0x00000000)
T398C 000:534.850 - 0.006ms returns 0
T398C 000:534.856 JLINK_WriteReg(R4, 0x00000000)
T398C 000:534.862 - 0.006ms returns 0
T398C 000:534.869 JLINK_WriteReg(R5, 0x00000000)
T398C 000:534.875 - 0.005ms returns 0
T398C 000:534.882 JLINK_WriteReg(R6, 0x00000000)
T398C 000:534.888 - 0.005ms returns 0
T398C 000:534.895 JLINK_WriteReg(R7, 0x00000000)
T398C 000:534.901 - 0.006ms returns 0
T398C 000:534.908 JLINK_WriteReg(R8, 0x00000000)
T398C 000:534.914 - 0.006ms returns 0
T398C 000:534.921 JLINK_WriteReg(R9, 0x20000248)
T398C 000:534.926 - 0.005ms returns 0
T398C 000:534.933 JLINK_WriteReg(R10, 0x00000000)
T398C 000:534.939 - 0.005ms returns 0
T398C 000:534.946 JLINK_WriteReg(R11, 0x00000000)
T398C 000:534.952 - 0.005ms returns 0
T398C 000:534.959 JLINK_WriteReg(R12, 0x00000000)
T398C 000:534.965 - 0.005ms returns 0
T398C 000:534.972 JLINK_WriteReg(R13 (SP), 0x20001000)
T398C 000:534.978 - 0.006ms returns 0
T398C 000:534.985 JLINK_WriteReg(R14, 0x20000001)
T398C 000:534.991 - 0.006ms returns 0
T398C 000:534.998 JLINK_WriteReg(R15 (PC), 0x20000070)
T398C 000:535.004 - 0.006ms returns 0
T398C 000:535.011 JLINK_WriteReg(XPSR, 0x01000000)
T398C 000:535.016 - 0.006ms returns 0
T398C 000:535.023 JLINK_WriteReg(MSP, 0x20001000)
T398C 000:535.029 - 0.006ms returns 0
T398C 000:535.036 JLINK_WriteReg(PSP, 0x20001000)
T398C 000:535.042 - 0.005ms returns 0
T398C 000:535.049 JLINK_WriteReg(CFBP, 0x00000000)
T398C 000:535.055 - 0.005ms returns 0
T398C 000:535.063 JLINK_SetBPEx(Addr = 0x20000000, Type = 0xFFFFFFF2)
T398C 000:535.069 - 0.007ms returns 0x00000005
T398C 000:535.076 JLINK_Go()
T398C 000:535.089   CPU_ReadMem(4 bytes @ 0xE0001000)
T398C 000:538.963 - 3.886ms
T398C 000:538.976 JLINK_IsHalted()
T398C 000:539.402 - 0.425ms returns FALSE
T398C 000:539.414 JLINK_HasError()
T398C 000:541.310 JLINK_IsHalted()
T398C 000:544.569   CPU_ReadMem(2 bytes @ 0x20000000)
T398C 000:545.123 - 3.812ms returns TRUE
T398C 000:545.137 JLINK_ReadReg(R15 (PC))
T398C 000:545.149 - 0.011ms returns 0x20000000
T398C 000:545.160 JLINK_ClrBPEx(BPHandle = 0x00000005)
T398C 000:545.169 - 0.009ms returns 0x00
T398C 000:545.180 JLINK_ReadReg(R0)
T398C 000:545.189 - 0.009ms returns 0x00000000
T398C 000:546.045 JLINK_HasError()
T398C 000:546.065 JLINK_WriteReg(R0, 0x00000800)
T398C 000:546.075 - 0.010ms returns 0
T398C 000:546.085 JLINK_WriteReg(R1, 0x00000400)
T398C 000:546.094 - 0.008ms returns 0
T398C 000:546.103 JLINK_WriteReg(R2, 0x000000FF)
T398C 000:546.112 - 0.008ms returns 0
T398C 000:546.121 JLINK_WriteReg(R3, 0x00000000)
T398C 000:546.129 - 0.008ms returns 0
T398C 000:546.139 JLINK_WriteReg(R4, 0x00000000)
T398C 000:546.147 - 0.008ms returns 0
T398C 000:546.157 JLINK_WriteReg(R5, 0x00000000)
T398C 000:546.165 - 0.008ms returns 0
T398C 000:546.174 JLINK_WriteReg(R6, 0x00000000)
T398C 000:546.182 - 0.008ms returns 0
T398C 000:546.192 JLINK_WriteReg(R7, 0x00000000)
T398C 000:546.200 - 0.008ms returns 0
T398C 000:546.210 JLINK_WriteReg(R8, 0x00000000)
T398C 000:546.217 - 0.008ms returns 0
T398C 000:546.249 JLINK_WriteReg(R9, 0x20000248)
T398C 000:546.258 - 0.008ms returns 0
T398C 000:546.267 JLINK_WriteReg(R10, 0x00000000)
T398C 000:546.276 - 0.008ms returns 0
T398C 000:546.285 JLINK_WriteReg(R11, 0x00000000)
T398C 000:546.293 - 0.008ms returns 0
T398C 000:546.303 JLINK_WriteReg(R12, 0x00000000)
T398C 000:546.311 - 0.008ms returns 0
T398C 000:546.321 JLINK_WriteReg(R13 (SP), 0x20001000)
T398C 000:546.329 - 0.009ms returns 0
T398C 000:546.339 JLINK_WriteReg(R14, 0x20000001)
T398C 000:546.347 - 0.008ms returns 0
T398C 000:546.357 JLINK_WriteReg(R15 (PC), 0x20000020)
T398C 000:546.365 - 0.008ms returns 0
T398C 000:546.375 JLINK_WriteReg(XPSR, 0x01000000)
T398C 000:546.383 - 0.008ms returns 0
T398C 000:546.396 JLINK_WriteReg(MSP, 0x20001000)
T398C 000:546.408 - 0.012ms returns 0
T398C 000:546.418 JLINK_WriteReg(PSP, 0x20001000)
T398C 000:546.426 - 0.008ms returns 0
T398C 000:546.435 JLINK_WriteReg(CFBP, 0x00000000)
T398C 000:546.443 - 0.008ms returns 0
T398C 000:546.455 JLINK_SetBPEx(Addr = 0x20000000, Type = 0xFFFFFFF2)
T398C 000:546.464 - 0.010ms returns 0x00000006
T398C 000:546.473 JLINK_Go()
T398C 000:546.491   CPU_ReadMem(4 bytes @ 0xE0001000)
T398C 000:550.215 - 3.741ms
T398C 000:550.248 JLINK_IsHalted()
T398C 000:553.440   CPU_ReadMem(2 bytes @ 0x20000000)
T398C 000:553.984 - 3.735ms returns TRUE
T398C 000:554.010 JLINK_ReadReg(R15 (PC))
T398C 000:554.023 - 0.013ms returns 0x20000000
T398C 000:554.100 JLINK_ClrBPEx(BPHandle = 0x00000006)
T398C 000:554.114 - 0.014ms returns 0x00
T398C 000:554.127 JLINK_ReadReg(R0)
T398C 000:554.137 - 0.010ms returns 0x00000001
T398C 000:554.150 JLINK_HasError()
T398C 000:554.163 JLINK_WriteReg(R0, 0x00000800)
T398C 000:554.174 - 0.011ms returns 0
T398C 000:554.187 JLINK_WriteReg(R1, 0x00000400)
T398C 000:554.197 - 0.010ms returns 0
T398C 000:554.208 JLINK_WriteReg(R2, 0x000000FF)
T398C 000:554.218 - 0.010ms returns 0
T398C 000:554.248 JLINK_WriteReg(R3, 0x00000000)
T398C 000:554.259 - 0.011ms returns 0
T398C 000:554.271 JLINK_WriteReg(R4, 0x00000000)
T398C 000:554.281 - 0.010ms returns 0
T398C 000:554.293 JLINK_WriteReg(R5, 0x00000000)
T398C 000:554.303 - 0.009ms returns 0
T398C 000:554.314 JLINK_WriteReg(R6, 0x00000000)
T398C 000:554.324 - 0.010ms returns 0
T398C 000:554.336 JLINK_WriteReg(R7, 0x00000000)
T398C 000:554.346 - 0.010ms returns 0
T398C 000:554.357 JLINK_WriteReg(R8, 0x00000000)
T398C 000:554.367 - 0.010ms returns 0
T398C 000:554.379 JLINK_WriteReg(R9, 0x20000248)
T398C 000:554.389 - 0.009ms returns 0
T398C 000:554.400 JLINK_WriteReg(R10, 0x00000000)
T398C 000:554.411 - 0.010ms returns 0
T398C 000:554.422 JLINK_WriteReg(R11, 0x00000000)
T398C 000:554.433 - 0.010ms returns 0
T398C 000:554.444 JLINK_WriteReg(R12, 0x00000000)
T398C 000:554.454 - 0.010ms returns 0
T398C 000:554.466 JLINK_WriteReg(R13 (SP), 0x20001000)
T398C 000:554.477 - 0.011ms returns 0
T398C 000:554.488 JLINK_WriteReg(R14, 0x20000001)
T398C 000:554.498 - 0.009ms returns 0
T398C 000:554.509 JLINK_WriteReg(R15 (PC), 0x20000070)
T398C 000:554.518 - 0.009ms returns 0
T398C 000:554.529 JLINK_WriteReg(XPSR, 0x01000000)
T398C 000:554.538 - 0.009ms returns 0
T398C 000:554.549 JLINK_WriteReg(MSP, 0x20001000)
T398C 000:554.558 - 0.009ms returns 0
T398C 000:554.569 JLINK_WriteReg(PSP, 0x20001000)
T398C 000:554.578 - 0.009ms returns 0
T398C 000:554.589 JLINK_WriteReg(CFBP, 0x00000000)
T398C 000:554.598 - 0.009ms returns 0
T398C 000:554.610 JLINK_SetBPEx(Addr = 0x20000000, Type = 0xFFFFFFF2)
T398C 000:554.621 - 0.011ms returns 0x00000007
T398C 000:554.631 JLINK_Go()
T398C 000:554.650   CPU_ReadMem(4 bytes @ 0xE0001000)
T398C 000:558.349 - 3.716ms
T398C 000:558.374 JLINK_IsHalted()
T398C 000:558.853 - 0.475ms returns FALSE
T398C 000:558.873 JLINK_HasError()
T398C 000:562.288 JLINK_IsHalted()
T398C 000:565.565   CPU_ReadMem(2 bytes @ 0x20000000)
T398C 000:566.078 - 3.788ms returns TRUE
T398C 000:566.096 JLINK_ReadReg(R15 (PC))
T398C 000:566.109 - 0.012ms returns 0x20000000
T398C 000:566.121 JLINK_ClrBPEx(BPHandle = 0x00000007)
T398C 000:566.132 - 0.010ms returns 0x00
T398C 000:566.143 JLINK_ReadReg(R0)
T398C 000:566.153 - 0.010ms returns 0x00000000
T398C 000:567.042 JLINK_HasError()
T398C 000:567.062 JLINK_WriteReg(R0, 0x00000C00)
T398C 000:567.074 - 0.011ms returns 0
T398C 000:567.084 JLINK_WriteReg(R1, 0x00000400)
T398C 000:567.093 - 0.008ms returns 0
T398C 000:567.102 JLINK_WriteReg(R2, 0x000000FF)
T398C 000:567.111 - 0.008ms returns 0
T398C 000:567.120 JLINK_WriteReg(R3, 0x00000000)
T398C 000:567.128 - 0.008ms returns 0
T398C 000:567.138 JLINK_WriteReg(R4, 0x00000000)
T398C 000:567.146 - 0.008ms returns 0
T398C 000:567.155 JLINK_WriteReg(R5, 0x00000000)
T398C 000:567.163 - 0.008ms returns 0
T398C 000:567.173 JLINK_WriteReg(R6, 0x00000000)
T398C 000:567.326 - 0.153ms returns 0
T398C 000:567.337 JLINK_WriteReg(R7, 0x00000000)
T398C 000:567.345 - 0.008ms returns 0
T398C 000:567.355 JLINK_WriteReg(R8, 0x00000000)
T398C 000:567.363 - 0.008ms returns 0
T398C 000:567.373 JLINK_WriteReg(R9, 0x20000248)
T398C 000:567.381 - 0.008ms returns 0
T398C 000:567.390 JLINK_WriteReg(R10, 0x00000000)
T398C 000:567.399 - 0.008ms returns 0
T398C 000:567.408 JLINK_WriteReg(R11, 0x00000000)
T398C 000:567.416 - 0.008ms returns 0
T398C 000:567.426 JLINK_WriteReg(R12, 0x00000000)
T398C 000:567.434 - 0.008ms returns 0
T398C 000:567.444 JLINK_WriteReg(R13 (SP), 0x20001000)
T398C 000:567.453 - 0.009ms returns 0
T398C 000:567.462 JLINK_WriteReg(R14, 0x20000001)
T398C 000:567.470 - 0.008ms returns 0
T398C 000:567.480 JLINK_WriteReg(R15 (PC), 0x20000020)
T398C 000:567.489 - 0.008ms returns 0
T398C 000:567.498 JLINK_WriteReg(XPSR, 0x01000000)
T398C 000:567.506 - 0.008ms returns 0
T398C 000:567.516 JLINK_WriteReg(MSP, 0x20001000)
T398C 000:567.524 - 0.008ms returns 0
T398C 000:567.534 JLINK_WriteReg(PSP, 0x20001000)
T398C 000:567.542 - 0.008ms returns 0
T398C 000:567.552 JLINK_WriteReg(CFBP, 0x00000000)
T398C 000:567.561 - 0.009ms returns 0
T398C 000:567.571 JLINK_SetBPEx(Addr = 0x20000000, Type = 0xFFFFFFF2)
T398C 000:567.580 - 0.010ms returns 0x00000008
T398C 000:567.589 JLINK_Go()
T398C 000:567.609   CPU_ReadMem(4 bytes @ 0xE0001000)
T398C 000:571.307 - 3.716ms
T398C 000:571.334 JLINK_IsHalted()
T398C 000:574.625   CPU_ReadMem(2 bytes @ 0x20000000)
T398C 000:575.183 - 3.848ms returns TRUE
T398C 000:575.197 JLINK_ReadReg(R15 (PC))
T398C 000:575.207 - 0.010ms returns 0x20000000
T398C 000:575.217 JLINK_ClrBPEx(BPHandle = 0x00000008)
T398C 000:575.240 - 0.024ms returns 0x00
T398C 000:575.250 JLINK_ReadReg(R0)
T398C 000:575.258 - 0.007ms returns 0x00000001
T398C 000:575.268 JLINK_HasError()
T398C 000:575.277 JLINK_WriteReg(R0, 0x00000C00)
T398C 000:575.285 - 0.008ms returns 0
T398C 000:575.294 JLINK_WriteReg(R1, 0x00000400)
T398C 000:575.301 - 0.007ms returns 0
T398C 000:575.310 JLINK_WriteReg(R2, 0x000000FF)
T398C 000:575.317 - 0.007ms returns 0
T398C 000:575.326 JLINK_WriteReg(R3, 0x00000000)
T398C 000:575.333 - 0.007ms returns 0
T398C 000:575.342 JLINK_WriteReg(R4, 0x00000000)
T398C 000:575.349 - 0.007ms returns 0
T398C 000:575.357 JLINK_WriteReg(R5, 0x00000000)
T398C 000:575.364 - 0.007ms returns 0
T398C 000:575.373 JLINK_WriteReg(R6, 0x00000000)
T398C 000:575.380 - 0.007ms returns 0
T398C 000:575.388 JLINK_WriteReg(R7, 0x00000000)
T398C 000:575.396 - 0.007ms returns 0
T398C 000:575.404 JLINK_WriteReg(R8, 0x00000000)
T398C 000:575.411 - 0.007ms returns 0
T398C 000:575.420 JLINK_WriteReg(R9, 0x20000248)
T398C 000:575.427 - 0.007ms returns 0
T398C 000:575.436 JLINK_WriteReg(R10, 0x00000000)
T398C 000:575.443 - 0.007ms returns 0
T398C 000:575.451 JLINK_WriteReg(R11, 0x00000000)
T398C 000:575.458 - 0.007ms returns 0
T398C 000:575.467 JLINK_WriteReg(R12, 0x00000000)
T398C 000:575.474 - 0.007ms returns 0
T398C 000:575.482 JLINK_WriteReg(R13 (SP), 0x20001000)
T398C 000:575.490 - 0.008ms returns 0
T398C 000:575.499 JLINK_WriteReg(R14, 0x20000001)
T398C 000:575.506 - 0.007ms returns 0
T398C 000:575.514 JLINK_WriteReg(R15 (PC), 0x20000070)
T398C 000:575.522 - 0.007ms returns 0
T398C 000:575.530 JLINK_WriteReg(XPSR, 0x01000000)
T398C 000:575.537 - 0.007ms returns 0
T398C 000:575.546 JLINK_WriteReg(MSP, 0x20001000)
T398C 000:575.553 - 0.007ms returns 0
T398C 000:575.561 JLINK_WriteReg(PSP, 0x20001000)
T398C 000:575.569 - 0.007ms returns 0
T398C 000:575.577 JLINK_WriteReg(CFBP, 0x00000000)
T398C 000:575.584 - 0.007ms returns 0
T398C 000:575.594 JLINK_SetBPEx(Addr = 0x20000000, Type = 0xFFFFFFF2)
T398C 000:575.602 - 0.008ms returns 0x00000009
T398C 000:575.610 JLINK_Go()
T398C 000:575.625   CPU_ReadMem(4 bytes @ 0xE0001000)
T398C 000:579.325 - 3.714ms
T398C 000:579.347 JLINK_IsHalted()
T398C 000:579.888 - 0.540ms returns FALSE
T398C 000:579.908 JLINK_HasError()
T398C 000:583.364 JLINK_IsHalted()
T398C 000:586.686   CPU_ReadMem(2 bytes @ 0x20000000)
T398C 000:587.287 - 3.921ms returns TRUE
T398C 000:587.329 JLINK_ReadReg(R15 (PC))
T398C 000:587.344 - 0.015ms returns 0x20000000
T398C 000:587.357 JLINK_ClrBPEx(BPHandle = 0x00000009)
T398C 000:587.368 - 0.011ms returns 0x00
T398C 000:587.381 JLINK_ReadReg(R0)
T398C 000:587.391 - 0.010ms returns 0x00000000
T398C 000:588.348 JLINK_HasError()
T398C 000:588.370 JLINK_WriteReg(R0, 0x00001000)
T398C 000:588.383 - 0.013ms returns 0
T398C 000:588.395 JLINK_WriteReg(R1, 0x00000400)
T398C 000:588.404 - 0.010ms returns 0
T398C 000:588.415 JLINK_WriteReg(R2, 0x000000FF)
T398C 000:588.425 - 0.009ms returns 0
T398C 000:588.436 JLINK_WriteReg(R3, 0x00000000)
T398C 000:588.445 - 0.009ms returns 0
T398C 000:588.456 JLINK_WriteReg(R4, 0x00000000)
T398C 000:588.465 - 0.009ms returns 0
T398C 000:588.476 JLINK_WriteReg(R5, 0x00000000)
T398C 000:588.486 - 0.009ms returns 0
T398C 000:588.496 JLINK_WriteReg(R6, 0x00000000)
T398C 000:588.506 - 0.009ms returns 0
T398C 000:588.517 JLINK_WriteReg(R7, 0x00000000)
T398C 000:588.526 - 0.009ms returns 0
T398C 000:588.537 JLINK_WriteReg(R8, 0x00000000)
T398C 000:588.546 - 0.009ms returns 0
T398C 000:588.557 JLINK_WriteReg(R9, 0x20000248)
T398C 000:588.566 - 0.009ms returns 0
T398C 000:588.577 JLINK_WriteReg(R10, 0x00000000)
T398C 000:588.586 - 0.009ms returns 0
T398C 000:588.597 JLINK_WriteReg(R11, 0x00000000)
T398C 000:588.606 - 0.009ms returns 0
T398C 000:588.618 JLINK_WriteReg(R12, 0x00000000)
T398C 000:588.626 - 0.008ms returns 0
T398C 000:588.637 JLINK_WriteReg(R13 (SP), 0x20001000)
T398C 000:588.646 - 0.009ms returns 0
T398C 000:588.656 JLINK_WriteReg(R14, 0x20000001)
T398C 000:588.665 - 0.008ms returns 0
T398C 000:588.675 JLINK_WriteReg(R15 (PC), 0x20000020)
T398C 000:588.684 - 0.009ms returns 0
T398C 000:588.694 JLINK_WriteReg(XPSR, 0x01000000)
T398C 000:588.703 - 0.008ms returns 0
T398C 000:588.713 JLINK_WriteReg(MSP, 0x20001000)
T398C 000:588.721 - 0.008ms returns 0
T398C 000:588.731 JLINK_WriteReg(PSP, 0x20001000)
T398C 000:588.740 - 0.008ms returns 0
T398C 000:588.750 JLINK_WriteReg(CFBP, 0x00000000)
T398C 000:588.758 - 0.008ms returns 0
T398C 000:588.770 JLINK_SetBPEx(Addr = 0x20000000, Type = 0xFFFFFFF2)
T398C 000:588.780 - 0.010ms returns 0x0000000A
T398C 000:588.790 JLINK_Go()
T398C 000:588.812   CPU_ReadMem(4 bytes @ 0xE0001000)
T398C 000:592.502 - 3.710ms
T398C 000:592.525 JLINK_IsHalted()
T398C 000:595.674   CPU_ReadMem(2 bytes @ 0x20000000)
T398C 000:596.207 - 3.682ms returns TRUE
T398C 000:596.224 JLINK_ReadReg(R15 (PC))
T398C 000:596.236 - 0.012ms returns 0x20000000
T398C 000:596.249 JLINK_ClrBPEx(BPHandle = 0x0000000A)
T398C 000:596.260 - 0.011ms returns 0x00
T398C 000:596.272 JLINK_ReadReg(R0)
T398C 000:596.283 - 0.010ms returns 0x00000001
T398C 000:596.369 JLINK_HasError()
T398C 000:596.385 JLINK_WriteReg(R0, 0x00001000)
T398C 000:596.396 - 0.011ms returns 0
T398C 000:596.409 JLINK_WriteReg(R1, 0x00000400)
T398C 000:596.419 - 0.010ms returns 0
T398C 000:596.432 JLINK_WriteReg(R2, 0x000000FF)
T398C 000:596.442 - 0.010ms returns 0
T398C 000:596.454 JLINK_WriteReg(R3, 0x00000000)
T398C 000:596.464 - 0.010ms returns 0
T398C 000:596.475 JLINK_WriteReg(R4, 0x00000000)
T398C 000:596.485 - 0.009ms returns 0
T398C 000:596.497 JLINK_WriteReg(R5, 0x00000000)
T398C 000:596.507 - 0.009ms returns 0
T398C 000:596.518 JLINK_WriteReg(R6, 0x00000000)
T398C 000:596.528 - 0.010ms returns 0
T398C 000:596.540 JLINK_WriteReg(R7, 0x00000000)
T398C 000:596.550 - 0.009ms returns 0
T398C 000:596.561 JLINK_WriteReg(R8, 0x00000000)
T398C 000:596.571 - 0.010ms returns 0
T398C 000:596.583 JLINK_WriteReg(R9, 0x20000248)
T398C 000:596.593 - 0.010ms returns 0
T398C 000:596.605 JLINK_WriteReg(R10, 0x00000000)
T398C 000:596.615 - 0.010ms returns 0
T398C 000:596.626 JLINK_WriteReg(R11, 0x00000000)
T398C 000:596.636 - 0.010ms returns 0
T398C 000:596.648 JLINK_WriteReg(R12, 0x00000000)
T398C 000:596.658 - 0.009ms returns 0
T398C 000:596.670 JLINK_WriteReg(R13 (SP), 0x20001000)
T398C 000:596.746 - 0.077ms returns 0
T398C 000:596.763 JLINK_WriteReg(R14, 0x20000001)
T398C 000:596.774 - 0.010ms returns 0
T398C 000:596.785 JLINK_WriteReg(R15 (PC), 0x20000070)
T398C 000:596.795 - 0.010ms returns 0
T398C 000:596.807 JLINK_WriteReg(XPSR, 0x01000000)
T398C 000:596.817 - 0.010ms returns 0
T398C 000:596.829 JLINK_WriteReg(MSP, 0x20001000)
T398C 000:596.839 - 0.009ms returns 0
T398C 000:596.851 JLINK_WriteReg(PSP, 0x20001000)
T398C 000:596.861 - 0.010ms returns 0
T398C 000:596.873 JLINK_WriteReg(CFBP, 0x00000000)
T398C 000:596.883 - 0.010ms returns 0
T398C 000:596.896 JLINK_SetBPEx(Addr = 0x20000000, Type = 0xFFFFFFF2)
T398C 000:596.907 - 0.012ms returns 0x0000000B
T398C 000:596.919 JLINK_Go()
T398C 000:596.941   CPU_ReadMem(4 bytes @ 0xE0001000)
T398C 000:600.588 - 3.668ms
T398C 000:600.610 JLINK_IsHalted()
T398C 000:601.187 - 0.576ms returns FALSE
T398C 000:601.205 JLINK_HasError()
T398C 000:602.706 JLINK_IsHalted()
T398C 000:605.938   CPU_ReadMem(2 bytes @ 0x20000000)
T398C 000:606.534 - 3.827ms returns TRUE
T398C 000:606.567 JLINK_ReadReg(R15 (PC))
T398C 000:606.587 - 0.019ms returns 0x20000000
T398C 000:606.606 JLINK_ClrBPEx(BPHandle = 0x0000000B)
T398C 000:606.621 - 0.016ms returns 0x00
T398C 000:606.639 JLINK_ReadReg(R0)
T398C 000:606.676 - 0.036ms returns 0x00000000
T398C 000:608.168 JLINK_HasError()
T398C 000:608.240 JLINK_WriteReg(R0, 0x00001400)
T398C 000:608.263 - 0.022ms returns 0
T398C 000:608.279 JLINK_WriteReg(R1, 0x00000400)
T398C 000:608.294 - 0.014ms returns 0
T398C 000:608.309 JLINK_WriteReg(R2, 0x000000FF)
T398C 000:608.322 - 0.013ms returns 0
T398C 000:608.338 JLINK_WriteReg(R3, 0x00000000)
T398C 000:608.350 - 0.013ms returns 0
T398C 000:608.366 JLINK_WriteReg(R4, 0x00000000)
T398C 000:608.378 - 0.012ms returns 0
T398C 000:608.394 JLINK_WriteReg(R5, 0x00000000)
T398C 000:608.407 - 0.012ms returns 0
T398C 000:608.422 JLINK_WriteReg(R6, 0x00000000)
T398C 000:608.434 - 0.012ms returns 0
T398C 000:608.450 JLINK_WriteReg(R7, 0x00000000)
T398C 000:608.462 - 0.012ms returns 0
T398C 000:608.476 JLINK_WriteReg(R8, 0x00000000)
T398C 000:608.488 - 0.011ms returns 0
T398C 000:608.502 JLINK_WriteReg(R9, 0x20000248)
T398C 000:608.513 - 0.011ms returns 0
T398C 000:608.722 JLINK_WriteReg(R10, 0x00000000)
T398C 000:608.750 - 0.028ms returns 0
T398C 000:608.765 JLINK_WriteReg(R11, 0x00000000)
T398C 000:608.778 - 0.013ms returns 0
T398C 000:608.792 JLINK_WriteReg(R12, 0x00000000)
T398C 000:608.804 - 0.011ms returns 0
T398C 000:608.819 JLINK_WriteReg(R13 (SP), 0x20001000)
T398C 000:608.832 - 0.014ms returns 0
T398C 000:608.846 JLINK_WriteReg(R14, 0x20000001)
T398C 000:608.858 - 0.012ms returns 0
T398C 000:608.872 JLINK_WriteReg(R15 (PC), 0x20000020)
T398C 000:608.883 - 0.012ms returns 0
T398C 000:608.897 JLINK_WriteReg(XPSR, 0x01000000)
T398C 000:608.909 - 0.012ms returns 0
T398C 000:608.923 JLINK_WriteReg(MSP, 0x20001000)
T398C 000:608.935 - 0.011ms returns 0
T398C 000:608.948 JLINK_WriteReg(PSP, 0x20001000)
T398C 000:608.960 - 0.011ms returns 0
T398C 000:608.974 JLINK_WriteReg(CFBP, 0x00000000)
T398C 000:608.986 - 0.011ms returns 0
T398C 000:609.001 JLINK_SetBPEx(Addr = 0x20000000, Type = 0xFFFFFFF2)
T398C 000:609.018 - 0.017ms returns 0x0000000C
T398C 000:609.032 JLINK_Go()
T398C 000:609.064   CPU_ReadMem(4 bytes @ 0xE0001000)
T398C 000:612.963 - 3.929ms
T398C 000:612.997 JLINK_IsHalted()
T398C 000:616.300   CPU_ReadMem(2 bytes @ 0x20000000)
T398C 000:616.850 - 3.852ms returns TRUE
T398C 000:616.884 JLINK_ReadReg(R15 (PC))
T398C 000:616.901 - 0.016ms returns 0x20000000
T398C 000:616.916 JLINK_ClrBPEx(BPHandle = 0x0000000C)
T398C 000:616.929 - 0.013ms returns 0x00
T398C 000:616.944 JLINK_ReadReg(R0)
T398C 000:616.956 - 0.012ms returns 0x00000001
T398C 000:616.971 JLINK_HasError()
T398C 000:616.986 JLINK_WriteReg(R0, 0x00001400)
T398C 000:617.000 - 0.014ms returns 0
T398C 000:617.015 JLINK_WriteReg(R1, 0x00000400)
T398C 000:617.026 - 0.012ms returns 0
T398C 000:617.041 JLINK_WriteReg(R2, 0x000000FF)
T398C 000:617.057 - 0.016ms returns 0
T398C 000:617.075 JLINK_WriteReg(R3, 0x00000000)
T398C 000:617.087 - 0.012ms returns 0
T398C 000:617.101 JLINK_WriteReg(R4, 0x00000000)
T398C 000:617.113 - 0.011ms returns 0
T398C 000:617.126 JLINK_WriteReg(R5, 0x00000000)
T398C 000:617.138 - 0.011ms returns 0
T398C 000:617.152 JLINK_WriteReg(R6, 0x00000000)
T398C 000:617.164 - 0.011ms returns 0
T398C 000:617.177 JLINK_WriteReg(R7, 0x00000000)
T398C 000:617.189 - 0.011ms returns 0
T398C 000:617.203 JLINK_WriteReg(R8, 0x00000000)
T398C 000:617.215 - 0.011ms returns 0
T398C 000:617.228 JLINK_WriteReg(R9, 0x20000248)
T398C 000:617.240 - 0.011ms returns 0
T398C 000:617.254 JLINK_WriteReg(R10, 0x00000000)
T398C 000:617.266 - 0.011ms returns 0
T398C 000:617.279 JLINK_WriteReg(R11, 0x00000000)
T398C 000:617.291 - 0.011ms returns 0
T398C 000:617.304 JLINK_WriteReg(R12, 0x00000000)
T398C 000:617.316 - 0.011ms returns 0
T398C 000:617.330 JLINK_WriteReg(R13 (SP), 0x20001000)
T398C 000:617.343 - 0.012ms returns 0
T398C 000:617.357 JLINK_WriteReg(R14, 0x20000001)
T398C 000:617.369 - 0.012ms returns 0
T398C 000:617.382 JLINK_WriteReg(R15 (PC), 0x20000070)
T398C 000:617.394 - 0.012ms returns 0
T398C 000:617.408 JLINK_WriteReg(XPSR, 0x01000000)
T398C 000:617.420 - 0.012ms returns 0
T398C 000:617.434 JLINK_WriteReg(MSP, 0x20001000)
T398C 000:617.445 - 0.011ms returns 0
T398C 000:617.459 JLINK_WriteReg(PSP, 0x20001000)
T398C 000:617.499 - 0.040ms returns 0
T398C 000:617.515 JLINK_WriteReg(CFBP, 0x00000000)
T398C 000:617.526 - 0.012ms returns 0
T398C 000:617.542 JLINK_SetBPEx(Addr = 0x20000000, Type = 0xFFFFFFF2)
T398C 000:617.556 - 0.014ms returns 0x0000000D
T398C 000:617.570 JLINK_Go()
T398C 000:617.597   CPU_ReadMem(4 bytes @ 0xE0001000)
T398C 000:621.394 - 3.823ms
T398C 000:621.417 JLINK_IsHalted()
T398C 000:621.923 - 0.506ms returns FALSE
T398C 000:621.946 JLINK_HasError()
T398C 000:627.622 JLINK_IsHalted()
T398C 000:630.951   CPU_ReadMem(2 bytes @ 0x20000000)
T398C 000:631.569 - 3.946ms returns TRUE
T398C 000:631.607 JLINK_ReadReg(R15 (PC))
T398C 000:631.623 - 0.016ms returns 0x20000000
T398C 000:631.638 JLINK_ClrBPEx(BPHandle = 0x0000000D)
T398C 000:631.650 - 0.012ms returns 0x00
T398C 000:631.663 JLINK_ReadReg(R0)
T398C 000:631.674 - 0.011ms returns 0x00000000
T398C 000:632.898 JLINK_HasError()
T398C 000:632.926 JLINK_WriteReg(R0, 0x00001800)
T398C 000:632.942 - 0.016ms returns 0
T398C 000:632.956 JLINK_WriteReg(R1, 0x00000400)
T398C 000:632.967 - 0.011ms returns 0
T398C 000:632.980 JLINK_WriteReg(R2, 0x000000FF)
T398C 000:632.990 - 0.011ms returns 0
T398C 000:633.003 JLINK_WriteReg(R3, 0x00000000)
T398C 000:633.014 - 0.010ms returns 0
T398C 000:633.026 JLINK_WriteReg(R4, 0x00000000)
T398C 000:633.037 - 0.010ms returns 0
T398C 000:633.050 JLINK_WriteReg(R5, 0x00000000)
T398C 000:633.061 - 0.010ms returns 0
T398C 000:633.073 JLINK_WriteReg(R6, 0x00000000)
T398C 000:633.084 - 0.010ms returns 0
T398C 000:633.097 JLINK_WriteReg(R7, 0x00000000)
T398C 000:633.107 - 0.010ms returns 0
T398C 000:633.120 JLINK_WriteReg(R8, 0x00000000)
T398C 000:633.131 - 0.011ms returns 0
T398C 000:633.144 JLINK_WriteReg(R9, 0x20000248)
T398C 000:633.154 - 0.010ms returns 0
T398C 000:633.167 JLINK_WriteReg(R10, 0x00000000)
T398C 000:633.178 - 0.011ms returns 0
T398C 000:633.191 JLINK_WriteReg(R11, 0x00000000)
T398C 000:633.201 - 0.010ms returns 0
T398C 000:633.214 JLINK_WriteReg(R12, 0x00000000)
T398C 000:633.225 - 0.010ms returns 0
T398C 000:633.238 JLINK_WriteReg(R13 (SP), 0x20001000)
T398C 000:633.250 - 0.012ms returns 0
T398C 000:633.263 JLINK_WriteReg(R14, 0x20000001)
T398C 000:633.273 - 0.010ms returns 0
T398C 000:633.286 JLINK_WriteReg(R15 (PC), 0x20000020)
T398C 000:633.297 - 0.011ms returns 0
T398C 000:633.310 JLINK_WriteReg(XPSR, 0x01000000)
T398C 000:633.320 - 0.011ms returns 0
T398C 000:633.333 JLINK_WriteReg(MSP, 0x20001000)
T398C 000:633.344 - 0.010ms returns 0
T398C 000:633.356 JLINK_WriteReg(PSP, 0x20001000)
T398C 000:633.367 - 0.010ms returns 0
T398C 000:633.380 JLINK_WriteReg(CFBP, 0x00000000)
T398C 000:633.399 - 0.019ms returns 0
T398C 000:633.413 JLINK_SetBPEx(Addr = 0x20000000, Type = 0xFFFFFFF2)
T398C 000:633.426 - 0.013ms returns 0x0000000E
T398C 000:633.438 JLINK_Go()
T398C 000:633.466   CPU_ReadMem(4 bytes @ 0xE0001000)
T398C 000:637.279 - 3.840ms
T398C 000:637.311 JLINK_IsHalted()
T398C 000:640.583   CPU_ReadMem(2 bytes @ 0x20000000)
T398C 000:641.227 - 3.915ms returns TRUE
T398C 000:641.280 JLINK_ReadReg(R15 (PC))
T398C 000:641.302 - 0.021ms returns 0x20000000
T398C 000:641.408 JLINK_ClrBPEx(BPHandle = 0x0000000E)
T398C 000:641.426 - 0.019ms returns 0x00
T398C 000:641.444 JLINK_ReadReg(R0)
T398C 000:641.457 - 0.013ms returns 0x00000001
T398C 000:641.496 JLINK_HasError()
T398C 000:641.513 JLINK_WriteReg(R0, 0x00001800)
T398C 000:641.528 - 0.014ms returns 0
